Freq.	V(v_l)
1.00000000000000e+000	(2.06873340543878e+001dB,4.82031736934231e-003°)
1.04729412282063e+000	(2.06873375346442e+001dB,5.04788634907232e-003°)
1.09682497969463e+000	(2.06873413516542e+001dB,5.28615800094088e-003°)
1.14869835499703e+000	(2.06873455379829e+001dB,5.53562958278816e-003°)
1.20302503608212e+000	(2.06873501293355e+001dB,5.79682054616682e-003°)
1.25992104989487e+000	(2.06873551648647e+001dB,6.07027338929039e-003°)
1.31950791077289e+000	(2.06873606875033e+001dB,6.35655452179626e-003°)
1.38191287996778e+000	(2.06873667443197e+001dB,6.65625513506155e-003°)
1.44726923744038e+000	(2.06873733869222e+001dB,6.96999208149753e-003°)
1.51571656651040e+000	(2.06873806718996e+001dB,7.29840874085542e-003°)
1.58740105196820e+000	(2.06873886612897e+001dB,7.64217588831938e-003°)
1.66247579228558e+000	(2.06873974230942e+001dB,8.00199253831541e-003°)
1.74110112659225e+000	(2.06874070318774e+001dB,8.37858676567147e-003°)
1.82344497711643e+000	(2.06874175693627e+001dB,8.77271648790213e-003°)
1.90968320782083e+000	(2.06874291251326e+001dB,9.18517019572627e-003°)
2.00000000000000e+000	(2.06874417973781e+001dB,9.61676762281983e-003°)
2.09458824564125e+000	(2.06874556937100e+001dB,1.00683603292734e-002°)
2.19364995938925e+000	(2.06874709320695e+001dB,1.05408321783149e-002°)
2.29739670999407e+000	(2.06874876416795e+001dB,1.10350996949405e-002°)
2.40605007216423e+000	(2.06875059641590e+001dB,1.15521122565495e-002°)
2.51984209978975e+000	(2.06875260546347e+001dB,1.20928521058637e-002°)
2.63901582154579e+000	(2.06875480830832e+001dB,1.26583341301225e-002°)
2.76382575993555e+000	(2.06875722356598e+001dB,1.32496053795388e-002°)
2.89453847488076e+000	(2.06875987162578e+001dB,1.38677442602149e-002°)
3.03143313302080e+000	(2.06876277481576e+001dB,1.45138593540924e-002°)
3.17480210393640e+000	(2.06876595758303e+001dB,1.51890877926221e-002°)
3.32495158457115e+000	(2.06876944668834e+001dB,1.58945931241021e-002°)
3.48220225318450e+000	(2.06877327142351e+001dB,1.66315625552199e-002°)
3.64688995423287e+000	(2.06877746384034e+001dB,1.74012035089410e-002°)
3.81936641564167e+000	(2.06878205900615e+001dB,1.82047393449119e-002°)
4.00000000000000e+000	(2.06878709527406e+001dB,1.90434041486796e-002°)
4.18917649128251e+000	(2.06879261458346e+001dB,1.99184364024831e-002°)
4.38729991877850e+000	(2.06879866277909e+001dB,2.08310714076336e-002°)
4.59479341998814e+000	(2.06880528995892e+001dB,2.17825322398233e-002°)
4.81210014432846e+000	(2.06881255084915e+001dB,2.27740190263316e-002°)
5.03968419957949e+000	(2.06882050520835e+001dB,2.38066963056434e-002°)
5.27803164309158e+000	(2.06882921826033e+001dB,2.48816781878312e-002°)
5.52765151987110e+000	(2.06883876116285e+001dB,2.60000109929559e-002°)
5.78907694976151e+000	(2.06884921150334e+001dB,2.71626530366173e-002°)
6.06286626604159e+000	(2.06886065383284e+001dB,2.83704511461850e-002°)
6.34960420787280e+000	(2.06887318023449e+001dB,2.96241134731347e-002°)
6.64990316914230e+000	(2.06888689091957e+001dB,3.09241781420655e-002°)
6.96440450636899e+000	(2.06890189486561e+001dB,3.22709771280063e-002°)
7.29377990846573e+000	(2.06891831048150e+001dB,3.36645948397988e-002°)
7.63873283128333e+000	(2.06893626630495e+001dB,3.51048206864044e-002°)
8.00000000000000e+000	(2.06895590172584e+001dB,3.65910949619100e-002°)
8.37835298256501e+000	(2.06897736773157e+001dB,3.81224472316926e-002°)
8.77459983755701e+000	(2.06900082767015e+001dB,3.96974264039701e-002°)
9.18958683997628e+000	(2.06902645802005e+001dB,4.13140216096669e-002°)
9.62420028865693e+000	(2.06905444915665e+001dB,4.29695729165864e-002°)
1.00793683991590e+001	(2.06908500610767e+001dB,4.46606709556910e-002°)
1.05560632861832e+001	(2.06911834926907e+001dB,4.63830444345930e-002°)
1.10553030397422e+001	(2.06915471507854e+001dB,4.81314345703482e-002°)
1.15781538995230e+001	(2.06919435661023e+001dB,4.98994554553883e-002°)
1.21257325320832e+001	(2.06923754406463e+001dB,5.16794395530488e-002°)
1.26992084157456e+001	(2.06928456513198e+001dB,5.34622674409881e-002°)
1.32998063382846e+001	(2.06933572517331e+001dB,5.52371813512081e-002°)
1.39288090127380e+001	(2.06939134719213e+001dB,5.69915820696114e-002°)
1.45875598169315e+001	(2.06945177153816e+001dB,5.87108092621942e-002°)
1.52774656625667e+001	(2.06951735529169e+001dB,6.03779056806992e-002°)
1.60000000000000e+001	(2.06958847127214e+001dB,6.19733661837976e-002°)
1.67567059651300e+001	(2.06966550659749e+001dB,6.34748733758820e-002°)
1.75491996751140e+001	(2.06974886073699e+001dB,6.48570222531380e-002°)
1.83791736799526e+001	(2.06983894298060e+001dB,6.60910374175957e-002°)
1.92484005773139e+001	(2.06993616925914e+001dB,6.71444873546918e-002°)
2.01587367983180e+001	(2.07004095824701e+001dB,6.79810016719626e-002°)
2.11121265723663e+001	(2.07015372669399e+001dB,6.85599983909984e-002°)
2.21106060794844e+001	(2.07027488393567e+001dB,6.88364298844927e-002°)
2.31563077990460e+001	(2.07040482555733e+001dB,6.87605573921447e-002°)
2.42514650641664e+001	(2.07054392620779e+001dB,6.82777655532935e-002°)
2.53984168314912e+001	(2.07069253158764e+001dB,6.73284293111271e-002°)
2.65996126765692e+001	(2.07085094968467e+001dB,6.58478465523863e-002°)
2.78576180254760e+001	(2.07101944135675e+001dB,6.37662503920526e-002°)
2.91751196338629e+001	(2.07119821043255e+001dB,6.10089144206126e-002°)
3.05549313251333e+001	(2.07138739354328e+001dB,5.74963636880184e-002°)
3.20000000000000e+001	(2.07158704995506e+001dB,5.31447020099672e-002°)
3.35134119302600e+001	(2.07179715173596e+001dB,4.78660634109112e-002°)
3.50983993502280e+001	(2.07201757462394e+001dB,4.15691915321563e-002°)
3.67583473599051e+001	(2.07224809002557e+001dB,3.41601454419612e-002°)
3.84968011546277e+001	(2.07248835855799e+001dB,2.55431248624354e-002°)
4.03174735966359e+001	(2.07273792558855e+001dB,1.56214003420938e-002°)
4.22242531447326e+001	(2.07299621916729e+001dB,4.29832736810851e-003°)
4.42212121589688e+001	(2.07326255070856e+001dB,-8.52158392943562e-003°)
4.63126155980921e+001	(2.07353611869706e+001dB,-2.29315782347240e-002°)
4.85029301283327e+001	(2.07381601555481e+001dB,-3.90215830855505e-002°)
5.07968336629824e+001	(2.07410123770914e+001dB,-5.68771989493723e-002°)
5.31992253531384e+001	(2.07439069871492e+001dB,-7.65787952375200e-002°)
5.57152360509519e+001	(2.07468324514394e+001dB,-9.82007546127144e-002°)
5.83502392677259e+001	(2.07497767480129e+001dB,-1.21810903945176e-001°)
6.11098626502666e+001	(2.07527275669031e+001dB,-1.47470162645942e-001°)
6.40000000000000e+001	(2.07556725204967e+001dB,-1.75232430485683e-001°)
6.70268238605201e+001	(2.07585993571841e+001dB,-2.05144725608450e-001°)
7.01967987004560e+001	(2.07614961706742e+001dB,-2.37247572213314e-001°)
7.35166947198102e+001	(2.07643515976121e+001dB,-2.71575625534212e-001°)
7.69936023092554e+001	(2.07671549968552e+001dB,-3.08158511218783e-001°)
8.06349471932719e+001	(2.07698966048720e+001dB,-3.47021847059361e-001°)
8.44485062894652e+001	(2.07725676631179e+001dB,-3.88188409046639e-001°)
8.84424243179376e+001	(2.07751605146885e+001dB,-4.31679398974149e-001°)
9.26252311961842e+001	(2.07776686692494e+001dB,-4.77515770331012e-001°)
9.70058602566654e+001	(2.07800868366179e+001dB,-5.25719570275684e-001°)
1.01593667325965e+002	(2.07824109308526e+001dB,-5.76315259271758e-001°)
1.06398450706277e+002	(2.07846380476244e+001dB,-6.29330975439712e-001°)
1.11430472101904e+002	(2.07867664185489e+001dB,-6.84799716968844e-001°)
1.16700478535452e+002	(2.07887953466811e+001dB,-7.42760423350560e-001°)
1.22219725300533e+002	(2.07907251275088e+001dB,-8.03258943060847e-001°)
1.28000000000000e+002	(2.07925569598163e+001dB,-8.66348882103671e-001°)
1.34053647721040e+002	(2.07942928505204e+001dB,-9.32092333720298e-001°)
1.40393597400912e+002	(2.07959355172047e+001dB,-1.00056049467321e+000°)
1.47033389439620e+002	(2.07974882916090e+001dB,-1.07183417706646e+000°)
1.53987204618511e+002	(2.07989550266424e+001dB,-1.14600422776239e+000°)
1.61269894386544e+002	(2.08003400091902e+001dB,-1.22317186906081e+000°)
1.68897012578930e+002	(2.08016478801439e+001dB,-1.30344897527706e+000°)
1.76884848635875e+002	(2.08028835627951e+001dB,-1.38695829991092e+000°)
1.85250462392368e+002	(2.08040522002988e+001dB,-1.47383366781928e+000°)
1.94011720513331e+002	(2.08051591023312e+001dB,-1.56422014581404e+000°)
2.03187334651929e+002	(2.08062097011227e+001dB,-1.65827420405167e+000°)
2.12796901412554e+002	(2.08072095164499e+001dB,-1.75616387939866e+000°)
2.22860944203808e+002	(2.08081641293117e+001dB,-1.85806895051581e+000°)
2.33400957070903e+002	(2.08090791637334e+001dB,-1.96418113322007e+000°)
2.44439450601067e+002	(2.08099602760911e+001dB,-2.07470430329054e+000°)
2.56000000000000e+002	(2.08108131514879e+001dB,-2.18985475339444e+000°)
2.68107295442080e+002	(2.08116435064043e+001dB,-2.30986148898692e+000°)
2.80787194801824e+002	(2.08124570972654e+001dB,-2.43496656818855e+000°)
2.94066778879241e+002	(2.08132597342706e+001dB,-2.56542548954625e+000°)
3.07974409237022e+002	(2.08140573001207e+001dB,-2.70150763132643e+000°)
3.22539788773087e+002	(2.08148557731658e+001dB,-2.84349674573845e+000°)
3.37794025157861e+002	(2.08156612547283e+001dB,-2.99169151134586e+000°)
3.53769697271751e+002	(2.08164800002842e+001dB,-3.14640614715865e+000°)
3.70500924784737e+002	(2.08173184543142e+001dB,-3.30797109163779e+000°)
3.88023441026662e+002	(2.08181832886759e+001dB,-3.47673375066617e+000°)
4.06374669303859e+002	(2.08190814443957e+001dB,-3.65305931862375e+000°)
4.25593802825107e+002	(2.08200201768863e+001dB,-3.83733167729324e+000°)
4.45721888407615e+002	(2.08210071044906e+001dB,-4.02995437814727e+000°)
4.66801914141807e+002	(2.08220502604356e+001dB,-4.23135171410769e+000°)
4.88878901202133e+002	(2.08231581482650e+001dB,-4.44196988802241e+000°)
5.12000000000000e+002	(2.08243398007320e+001dB,-4.66227828595364e+000°)
5.36214590884161e+002	(2.08256048422539e+001dB,-4.89277086478118e+000°)
5.61574389603648e+002	(2.08269635549843e+001dB,-5.13396766478988e+000°)
5.88133557758482e+002	(2.08284269484952e+001dB,-5.38641645963206e+000°)
6.15948818474043e+002	(2.08300068330403e+001dB,-5.65069455773135e+000°)
6.45079577546175e+002	(2.08317158963094e+001dB,-5.92741077136643e+000°)
6.75588050315722e+002	(2.08335677834828e+001dB,-6.21720757164614e+000°)
7.07539394543501e+002	(2.08355771802256e+001dB,-6.52076345058671e+000°)
7.41001849569473e+002	(2.08377598982187e+001dB,-6.83879551413481e+000°)
7.76046882053324e+002	(2.08401329624073e+001dB,-7.17206233347354e+000°)
8.12749338607718e+002	(2.08427146990900e+001dB,-7.52136708567798e+000°)
8.51187605650214e+002	(2.08455248234209e+001dB,-7.88756101919440e+000°)
8.91443776815231e+002	(2.08485845246461e+001dB,-8.27154728435351e+000°)
9.33603828283614e+002	(2.08519165466599e+001dB,-8.67428517478211e+000°)
9.77757802404266e+002	(2.08555452609154e+001dB,-9.09679483176859e+000°)
1.02400000000000e+003	(2.08594967277480e+001dB,-9.54016247064066e+000°)
1.07242918176832e+003	(2.08637987411746e+001dB,-1.00055461962305e+001°)
1.12314877920730e+003	(2.08684808508488e+001dB,-1.04941824832884e+001°)
1.17626711551696e+003	(2.08735743531519e+001dB,-1.10073934075944e+001°)
1.23189763694809e+003	(2.08791122413571e+001dB,-1.15465947245272e+001°)
1.29015915509235e+003	(2.08851291022725e+001dB,-1.21133049038025e+001°)
1.35117610063144e+003	(2.08916609434460e+001dB,-1.27091552421742e+001°)
1.41507878908700e+003	(2.08987449312262e+001dB,-1.33359011899041e+001°)
1.48200369913895e+003	(2.09064190148837e+001dB,-1.39954350413722e+001°)
1.55209376410665e+003	(2.09147214061479e+001dB,-1.46898001551709e+001°)
1.62549867721544e+003	(2.09236898758039e+001dB,-1.54212068834212e+001°)
1.70237521130043e+003	(2.09333608198994e+001dB,-1.61920504029879e+001°)
1.78288755363046e+003	(2.09437680366075e+001dB,-1.70049306510679e+001°)
1.86720765656723e+003	(2.09549411407479e+001dB,-1.78626745719300e+001°)
1.95551560480853e+003	(2.09669035257952e+001dB,-1.87683608768938e+001°)
2.04800000000000e+003	(2.09796697620417e+001dB,-1.97253475010698e+001°)
2.14485836353664e+003	(2.09932422940590e+001dB,-2.07373019008939e+001°)
2.24629755841459e+003	(2.10076072695969e+001dB,-2.18082342662424e+001°)
2.35253423103393e+003	(2.10227292950894e+001dB,-2.29425336061349e+001°)
2.46379527389617e+003	(2.10385448692556e+001dB,-2.41450064891856e+001°)
2.58031831018470e+003	(2.10549541956329e+001dB,-2.54209179532089e+001°)
2.70235220126289e+003	(2.10718110176781e+001dB,-2.67760337086135e+001°)
2.83015757817400e+003	(2.10889100580612e+001dB,-2.82166622030015e+001°)
2.96400739827789e+003	(2.11059715804441e+001dB,-2.97496943311890e+001°)
3.10418752821329e+003	(2.11226225352358e+001dB,-3.13826374964795e+001°)
3.25099735443087e+003	(2.11383737120370e+001dB,-3.31236392696751e+001°)
3.40475042260086e+003	(2.11525923226181e+001dB,-3.49814939656898e+001°)
3.56577510726092e+003	(2.11644695099020e+001dB,-3.69656229807974e+001°)
3.73441531313446e+003	(2.11729824691122e+001dB,-3.90860166681504e+001°)
3.91103120961707e+003	(2.11768512429595e+001dB,-4.13531219286664e+001°)
4.09600000000000e+003	(2.11744909014335e+001dB,-4.37776557974854e+001°)
4.28971672707329e+003	(2.11639608432896e+001dB,-4.63703216734458e+001°)
4.49259511682919e+003	(2.11429144649338e+001dB,-4.91414025244272e+001°)
4.70506846206785e+003	(2.11085545007047e+001dB,-5.21002061504705e+001°)
4.92759054779235e+003	(2.10576019030652e+001dB,-5.52543439448444e+001°)
5.16063662036940e+003	(2.09862889414398e+001dB,-5.86088397704956e+001°)
5.40470440252577e+003	(2.08903896393557e+001dB,-6.21650927565642e+001°)
5.66031515634801e+003	(2.07653016703383e+001dB,-6.59197586508329e+001°)
5.92801479655579e+003	(2.06061919077176e+001dB,-6.98636664164962e+001°)
6.20837505642659e+003	(2.04082114249057e+001dB,-7.39809406560877e+001°)
6.50199470886174e+003	(2.01667740427304e+001dB,-7.82485383093773e+001°)
6.80950084520172e+003	(1.98778764979802e+001dB,-8.26364060989779e+001°)
7.13155021452185e+003	(1.95384215900506e+001dB,-8.71084026046709e+001°)
7.46883062626891e+003	(1.91464942078236e+001dB,-9.16240017757853e+001°)
7.82206241923413e+003	(1.87015401133326e+001dB,-9.61406277070438e+001°)
8.19200000000000e+003	(1.82044117473734e+001dB,-1.00616314970417e+002°)
8.57943345414657e+003	(1.76572712945819e+001dB,-1.05012302858782e+002°)
8.98519023365837e+003	(1.70633705370071e+001dB,-1.09295190726403e+002°)
9.41013692413571e+003	(1.64267497231803e+001dB,-1.13438397384296e+002°)
9.85518109558470e+003	(1.57519071092302e+001dB,-1.17422833972864e+002°)
1.03212732407388e+004	(1.50434863049665e+001dB,-1.21236857869973e+002°)
1.08094088050515e+004	(1.43060145504422e+001dB,-1.24875681508933e+002°)
1.13206303126960e+004	(1.35437080012637e+001dB,-1.28340450390292e+002°)
1.18560295931116e+004	(1.27603453163156e+001dB,-1.31637190408234e+002°)
1.24167501128532e+004	(1.19592009962590e+001dB,-1.34775779126243e+002°)
1.30039894177235e+004	(1.11430252523603e+001dB,-1.37769041281604e+002°)
1.36190016904034e+004	(1.03140565107741e+001dB,-1.40632020570659e+002°)
1.42631004290437e+004	(9.47405439414296e+000dB,-1.43381444391778e+002°)
1.49376612525378e+004	(8.62434382177355e+000dB,-1.46035376434212e+002°)
1.56441248384683e+004	(7.76586384337492e+000dB,-1.48613041431719e+002°)
1.63840000000000e+004	(6.89921752358664e+000dB,-1.51134803759334e+002°)
1.71588669082931e+004	(6.02472149924756e+000dB,-1.53622283826906e+002°)
1.79703804673167e+004	(5.14245581337318e+000dB,-1.56098601096884e+002°)
1.88202738482714e+004	(4.25231647621206e+000dB,-1.58588738366912e+002°)
1.97103621911694e+004	(3.35407517017475e+000dB,-1.61120027416748e+002°)
2.06425464814776e+004	(2.44745291173931e+000dB,-1.63722759862391e+002°)
2.16188176101031e+004	(1.53221767585504e+000dB,-1.66430927037430e+002°)
2.26412606253920e+004	(6.08320391951009e-001dB,-1.69283085268705e+002°)
2.37120591862231e+004	(-3.23910263984142e-001dB,-1.72323321285387e+002°)
2.48335002257064e+004	(-1.26348607063118e+000dB,-1.75602244621384e+002°)
2.60079788354470e+004	(-2.20835337312312e+000dB,-1.79177839272998e+002°)
2.72380033808069e+004	(-3.15481900938719e+000dB,1.76884166015082e+002°)
2.85262008580874e+004	(-4.09676688208788e+000dB,1.72511040887613e+002°)
2.98753225050756e+004	(-5.02465497173867e+000dB,1.67625979365728e+002°)
3.12882496769365e+004	(-5.92437503147371e+000dB,1.62154804667107e+002°)
3.27680000000000e+004	(-6.77625654118739e+000dB,1.56038359411881e+002°)
3.43177338165863e+004	(-7.55482206217338e+000dB,1.49251788765159e+002°)
3.59407609346335e+004	(-8.23023655358511e+000dB,1.41828931931774e+002°)
3.76405476965428e+004	(-8.77233941278234e+000dB,1.33884090247280e+002°)
3.94207243823388e+004	(-9.15712592909099e+000dB,1.25617312643827e+002°)
4.12850929629552e+004	(-9.37357571347434e+000dB,1.17290749432696e+002°)
4.32376352202062e+004	(-9.42734609213408e+000dB,1.09178301072498e+002°)
4.52825212507841e+004	(-9.33906804316676e+000dB,1.01509893265249e+002°)
4.74241183724463e+004	(-9.13831236520379e+000dB,9.44359865627876e+001°)
4.96670004514127e+004	(-8.85659766858858e+000dB,8.80225278260250e+001°)
5.20159576708939e+004	(-8.52228096900118e+000dB,8.22681114445745e+001°)
5.44760067616137e+004	(-8.15816737341758e+000dB,7.71286423739653e+001°)
5.70524017161748e+004	(-7.78120864206600e+000dB,7.25390672731379e+001°)
5.97506450101513e+004	(-7.40329029207230e+000dB,6.84283822525962e+001°)
6.25764993538730e+004	(-7.03235583694622e+000dB,6.47283049750578e+001°)
6.55360000000000e+004	(-6.67347279555475e+000dB,6.13774301746219e+001°)
6.86354676331726e+004	(-6.32969543270310e+000dB,5.83226428626055e+001°)
7.18815218692670e+004	(-6.00270783654700e+000dB,5.55190631011555e+001°)
7.52810953930857e+004	(-5.69328088524808e+000dB,5.29293081556002e+001°)
7.88414487646776e+004	(-5.40158752872848e+000dB,5.05225100045340e+001°)
8.25701859259104e+004	(-5.12741620388054e+000dB,4.82733112756385e+001°)
8.64752704404124e+004	(-4.87031342170060e+000dB,4.61609409779426e+001°)
9.05650425015681e+004	(-4.62967812160371e+000dB,4.41684070080453e+001°)
9.48482367448926e+004	(-4.40482363024182e+000dB,4.22818106455854e+001°)
9.93340009028254e+004	(-4.19501807898898e+000dB,4.04897740835231e+001°)
1.04031915341788e+005	(-3.99951061423342e+000dB,3.87829668880835e+001°)
1.08952013523227e+005	(-3.81754830702552e+000dB,3.71537164813050e+001°)
1.14104803432350e+005	(-3.64838701821536e+000dB,3.55956888422565e+001°)
1.19501290020303e+005	(-3.49129836259913e+000dB,3.41036273991121e+001°)
1.25152998707746e+005	(-3.34557417058347e+000dB,3.26731399539832e+001°)
1.31072000000000e+005	(-3.21052934974934e+000dB,3.13005251949473e+001°)
1.37270935266345e+005	(-3.08550372076678e+000dB,2.99826318231842e+001°)
1.43763043738534e+005	(-2.96986318723290e+000dB,2.87167445494552e+001°)
1.50562190786171e+005	(-2.86300046020224e+000dB,2.75004922202371e+001°)
1.57682897529355e+005	(-2.76433547002695e+000dB,2.63317741535105e+001°)
1.65140371851821e+005	(-2.67331554366651e+000dB,2.52087014333570e+001°)
1.72950540880825e+005	(-2.58941539314664e+000dB,2.41295504605764e+001°)
1.81130085003136e+005	(-2.51213694247600e+000dB,2.30927265084721e+001°)
1.89696473489785e+005	(-2.44100901086126e+000dB,2.20967354089655e+001°)
1.98668001805651e+005	(-2.37558686572962e+000dB,2.11401618076100e+001°)
2.08063830683576e+005	(-2.31545165783105e+000dB,2.02216526905879e+001°)
2.17904027046455e+005	(-2.26020975076148e+000dB,1.93399051088929e+001°)
2.28209606864699e+005	(-2.20949195797874e+000dB,1.84936572134510e+001°)
2.39002580040605e+005	(-2.16295270101660e+000dB,1.76816818735944e+001°)
2.50305997415492e+005	(-2.12026910302227e+000dB,1.69027822855074e+001°)
2.62144000000000e+005	(-2.08114003177665e+000dB,1.61557890900327e+001°)
2.74541870532690e+005	(-2.04528510597518e+000dB,1.54395586136498e+001°)
2.87526087477068e+005	(-2.01244367784279e+000dB,1.47529719250822e+001°)
3.01124381572343e+005	(-1.98237380417579e+000dB,1.40949344651716e+001°)
3.15365795058710e+005	(-1.95485121671999e+000dB,1.34643760612212e+001°)
3.30280743703642e+005	(-1.92966830151609e+000dB,1.28602511808714e+001°)
3.45901081761649e+005	(-1.90663309548880e+000dB,1.22815393158530e+001°)
3.62260170006273e+005	(-1.88556830723695e+000dB,1.17272454145475e+001°)
