Freq.	V(v_l)
1.00000000000000e+000	(2.06873339350743e+001dB,1.17521251828073e-002°)
1.04729412282063e+000	(2.06873374037822e+001dB,1.23075305817642e-002°)
1.09682497969463e+000	(2.06873412081284e+001dB,1.28891437825802e-002°)
1.14869835499703e+000	(2.06873453805712e+001dB,1.34981954029490e-002°)
1.20302503608212e+000	(2.06873499566953e+001dB,1.41359729468621e-002°)
1.25992104989487e+000	(2.06873549755222e+001dB,1.48038232991069e-002°)
1.31950791077289e+000	(2.06873604798453e+001dB,1.55031553102079e-002°)
1.38191287996778e+000	(2.06873665165789e+001dB,1.62354424681594e-002°)
1.44726923744038e+000	(2.06873731371555e+001dB,1.70022256643458e-002°)
1.51571656651040e+000	(2.06873803979792e+001dB,1.78051160365503e-002°)
1.58740105196820e+000	(2.06873883608810e+001dB,1.86457979072914e-002°)
1.66247579228558e+000	(2.06873970936465e+001dB,1.95260317958483e-002°)
1.74110112659225e+000	(2.06874066705836e+001dB,2.04476575111328e-002°)
1.82344497711643e+000	(2.06874171731484e+001dB,2.14125973133832e-002°)
1.90968320782083e+000	(2.06874286906333e+001dB,2.24228591372522e-002°)
2.00000000000000e+000	(2.06874413209020e+001dB,2.34805398724781e-002°)
2.09458824564125e+000	(2.06874551712102e+001dB,2.45878286828681e-002°)
2.19364995938925e+000	(2.06874703591142e+001dB,2.57470103482436e-002°)
2.29739670999407e+000	(2.06874870134102e+001dB,2.69604686256802e-002°)
2.40605007216423e+000	(2.06875052752524e+001dB,2.82306895846559e-002°)
2.51984209978975e+000	(2.06875252992605e+001dB,2.95602649156940e-002°)
2.63901582154579e+000	(2.06875472548499e+001dB,3.09518951614648e-002°)
2.76382575993555e+000	(2.06875713275699e+001dB,3.24083928539895e-002°)
2.89453847488076e+000	(2.06875977206510e+001dB,3.39326854964803e-002°)
3.03143313302080e+000	(2.06876266566428e+001dB,3.55278183564547e-002°)
3.17480210393640e+000	(2.06876583792168e+001dB,3.71969570018389e-002°)
3.32495158457115e+000	(2.06876931551163e+001dB,3.89433895291835e-002°)
3.48220225318450e+000	(2.06877312763052e+001dB,4.07705283793141e-002°)
3.64688995423287e+000	(2.06877730622726e+001dB,4.26819116850578e-002°)
3.81936641564167e+000	(2.06878188625538e+001dB,4.46812040149059e-002°)
4.00000000000000e+000	(2.06878690594432e+001dB,4.67721964277113e-002°)
4.18917649128251e+000	(2.06879240709999e+001dB,4.89588056638537e-002°)
4.38729991877850e+000	(2.06879843541961e+001dB,5.12450723530657e-002°)
4.59479341998814e+000	(2.06880504084231e+001dB,5.36351580395560e-002°)
4.81210014432846e+000	(2.06881227792056e+001dB,5.61333408221246e-002°)
5.03968419957949e+000	(2.06882020622419e+001dB,5.87440093869448e-002°)
5.27803164309158e+000	(2.06882889077265e+001dB,6.14716551682523e-002°)
5.52765151987110e+000	(2.06883840250152e+001dB,6.43208623296038e-002°)
5.78907694976151e+000	(2.06884881875763e+001dB,6.72962952518599e-002°)
6.06286626604159e+000	(2.06886022383212e+001dB,7.04026831338025e-002°)
6.34960420787280e+000	(2.06887270952626e+001dB,7.36448012859911e-002°)
6.64990316914230e+000	(2.06888637574820e+001dB,7.70274486822358e-002°)
6.96440450636899e+000	(2.06890133114910e+001dB,8.05554211831057e-002°)
7.29377990846573e+000	(2.06891769378690e+001dB,8.42334799287876e-002°)
7.63873283128333e+000	(2.06893559182323e+001dB,8.80663142080414e-002°)
8.00000000000000e+000	(2.06895516424490e+001dB,9.20584981604716e-002°)
8.37835298256501e+000	(2.06897656161158e+001dB,9.62144405263321e-002°)
8.77459983755701e+000	(2.06899994681505e+001dB,1.00538326652748e-001°)
9.18958683997628e+000	(2.06902549585180e+001dB,1.05034051913708e-001°)
9.62420028865693e+000	(2.06905339858877e+001dB,1.09705145597369e-001°)
1.00793683991590e+001	(2.06908385952110e+001dB,1.14554684376860e-001°)
1.05560632861832e+001	(2.06911709849003e+001dB,1.19585194371306e-001°)
1.10553030397422e+001	(2.06915335135834e+001dB,1.24798540863979e-001°)
1.15781538995230e+001	(2.06919287061143e+001dB,1.30195804734053e-001°)
1.21257325320832e+001	(2.06923592585227e+001dB,1.35777144830244e-001°)
1.26992084157456e+001	(2.06928280417151e+001dB,1.41541645450798e-001°)
1.32998063382846e+001	(2.06933381033987e+001dB,1.47487148509906e-001°)
1.39288090127380e+001	(2.06938926678990e+001dB,1.53610069999617e-001°)
1.45875598169315e+001	(2.06944951333787e+001dB,1.59905200856073e-001°)
1.52774656625667e+001	(2.06951490658396e+001dB,1.66365492710207e-001°)
1.60000000000000e+001	(2.06958581894481e+001dB,1.72981829505657e-001°)
1.67567059651300e+001	(2.06966263723851e+001dB,1.79742786818548e-001°)
1.75491996751140e+001	(2.06974576077070e+001dB,1.86634381294514e-001°)
1.83791736799526e+001	(2.06983559884059e+001dB,1.93639813801358e-001°)
1.92484005773139e+001	(2.06993256760551e+001dB,2.00739210798103e-001°)
2.01587367983180e+001	(2.07003708623472e+001dB,2.07909369855652e-001°)
2.11121265723663e+001	(2.07014957230032e+001dB,2.15123516410890e-001°)
2.21106060794844e+001	(2.07027043635267e+001dB,2.22351080368526e-001°)
2.31563077990460e+001	(2.07040007566210e+001dB,2.29557502463408e-001°)
2.42514650641664e+001	(2.07053886711537e+001dB,2.36704081820349e-001°)
2.53984168314912e+001	(2.07068715929791e+001dB,2.43747877056647e-001°)
2.65996126765692e+001	(2.07084526383295e+001dB,2.50641674274282e-001°)
2.78576180254760e+001	(2.07101344607466e+001dB,2.57334035804358e-001°)
2.91751196338629e+001	(2.07119191532963e+001dB,2.63769443067203e-001°)
3.05549313251333e+001	(2.07138081481335e+001dB,2.69888546256615e-001°)
3.20000000000000e+001	(2.07158021161944e+001dB,2.75628531493782e-001°)
3.35134119302600e+001	(2.07179008702018e+001dB,2.80923613265632e-001°)
3.50983993502280e+001	(2.07201032747790e+001dB,2.85705656071649e-001°)
3.67583473599051e+001	(2.07224071678099e+001dB,2.89904923779659e-001°)
3.84968011546277e+001	(2.07248092972700e+001dB,2.93450949907128e-001°)
4.03174735966359e+001	(2.07273052779580e+001dB,2.96273514492772e-001°)
4.22242531447326e+001	(2.07298895721306e+001dB,2.98303706842261e-001°)
4.42212121589688e+001	(2.07325554975304e+001dB,2.99475046093666e-001°)
4.63126155980921e+001	(2.07352952655829e+001dB,2.99724625197051e-001°)
4.85029301283327e+001	(2.07381000511453e+001dB,2.98994239274868e-001°)
5.07968336629824e+001	(2.07409600941722e+001dB,2.97231455356700e-001°)
5.31992253531384e+001	(2.07438648318757e+001dB,2.94390579996800e-001°)
5.57152360509519e+001	(2.07468030585624e+001dB,2.90433482896678e-001°)
5.83502392677259e+001	(2.07497631087386e+001dB,2.85330238552714e-001°)
6.11098626502666e+001	(2.07527330578252e+001dB,2.79059555639919e-001°)
6.40000000000000e+001	(2.07557009337071e+001dB,2.71608972320047e-001°)
6.70268238605201e+001	(2.07586549318154e+001dB,2.62974807031536e-001°)
7.01967987004560e+001	(2.07615836261389e+001dB,2.53161865548045e-001°)
7.35166947198102e+001	(2.07644761689422e+001dB,2.42182916735998e-001°)
7.69936023092554e+001	(2.07673224725831e+001dB,2.30057960031320e-001°)
8.06349471932719e+001	(2.07701133679567e+001dB,2.16813316722374e-001°)
8.44485062894652e+001	(2.07728407355352e+001dB,2.02480583002656e-001°)
8.84424243179376e+001	(2.07754976062854e+001dB,1.87095487599674e-001°)
9.26252311961842e+001	(2.07780782315848e+001dB,1.70696697155189e-001°)
9.70058602566654e+001	(2.07805781225521e+001dB,1.53324611664519e-001°)
1.01593667325965e+002	(2.07829940606214e+001dB,1.35020188281633e-001°)
1.06398450706277e+002	(2.07853240822320e+001dB,1.15823826702918e-001°)
1.11430472101904e+002	(2.07875674413736e+001dB,9.57743427753646e-002°)
1.16700478535452e+002	(2.07897245541642e+001dB,7.49080498883381e-002°)
1.22219725300533e+002	(2.07917969298751e+001dB,5.32579608148624e-002°)
1.28000000000000e+002	(2.07937870928517e+001dB,3.08531157866503e-002°)
1.34053647721040e+002	(2.07956984994458e+001dB,7.71803719782951e-003°)
1.40393597400912e+002	(2.07975354538176e+001dB,-1.61276942751025e-002°)
1.47033389439620e+002	(2.07993030258888e+001dB,-4.06697503513901e-002°)
1.53987204618511e+002	(2.08010069742037e+001dB,-6.58992642277854e-002°)
1.61269894386544e+002	(2.08026536759812e+001dB,-9.18129510038182e-002°)
1.68897012578930e+002	(2.08042500660379e+001dB,-1.18413153507845e-001°)
1.76884848635875e+002	(2.08058035858059e+001dB,-1.45707827282213e-001°)
1.85250462392368e+002	(2.08073221433134e+001dB,-1.73710478744693e-001°)
1.94011720513331e+002	(2.08088140845594e+001dB,-2.02440068630814e-001°)
2.03187334651929e+002	(2.08102881765181e+001dB,-2.31920892861234e-001°)
2.12796901412554e+002	(2.08117536017646e+001dB,-2.62182450391503e-001°)
2.22860944203808e+002	(2.08132199646230e+001dB,-2.93259307455327e-001°)
2.33400957070903e+002	(2.08146973085868e+001dB,-3.25190965388103e-001°)
2.44439450601067e+002	(2.08161961448009e+001dB,-3.58021738146408e-001°)
2.56000000000000e+002	(2.08177274914094e+001dB,-3.91800645080609e-001°)
2.68107295442080e+002	(2.08193029235295e+001dB,-4.26581322532935e-001°)
2.80787194801824e+002	(2.08209346338240e+001dB,-4.62421957870459e-001°)
2.94066778879241e+002	(2.08226355035951e+001dB,-4.99385248286451e-001°)
3.07974409237022e+002	(2.08244191845870e+001dB,-5.37538386585929e-001°)
3.22539788773087e+002	(2.08263001916523e+001dB,-5.76953075389264e-001°)
3.37794025157861e+002	(2.08282940066969e+001dB,-6.17705571174558e-001°)
3.53769697271751e+002	(2.08304171944231e+001dB,-6.59876759479730e-001°)
3.70500924784737e+002	(2.08326875305080e+001dB,-7.03552262189951e-001°)
3.88023441026662e+002	(2.08351241430782e+001dB,-7.48822578336390e-001°)
4.06374669303859e+002	(2.08377476684571e+001dB,-7.95783259800461e-001°)
4.25593802825107e+002	(2.08405804224144e+001dB,-8.44535123460480e-001°)
4.45721888407615e+002	(2.08436465882599e+001dB,-8.95184501812163e-001°)
4.66801914141807e+002	(2.08469724233713e+001dB,-9.47843534515265e-001°)
4.88878901202133e+002	(2.08505864860356e+001dB,-1.00263050366772e+000°)
5.12000000000000e+002	(2.08545198845812e+001dB,-1.05967021646612e+000°)
5.36214590884161e+002	(2.08588065512230e+001dB,-1.11909443931748e+000°)
5.61574389603648e+002	(2.08634835432382e+001dB,-1.18104238863801e+000°)
5.88133557758482e+002	(2.08685913744579e+001dB,-1.24566128414299e+000°)
6.15948818474043e+002	(2.08741743804609e+001dB,-1.31310697197963e+000°)
6.45079577546175e+002	(2.08802811212755e+001dB,-1.38354462602023e+000°)
6.75588050315722e+002	(2.08869648258721e+001dB,-1.45714953727608e+000°)
7.07539394543501e+002	(2.08942838833228e+001dB,-1.53410800324621e+000°)
7.41001849569473e+002	(2.09023023861452e+001dB,-1.61461833104441e+000°)
7.76046882053324e+002	(2.09110907320232e+001dB,-1.69889197060103e+000°)
8.12749338607718e+002	(2.09207262910803e+001dB,-1.78715479723082e+000°)
8.51187605650214e+002	(2.09312941467019e+001dB,-1.87964856635176e+000°)
8.91443776815231e+002	(2.09428879192668e+001dB,-1.97663256723216e+000°)
9.33603828283614e+002	(2.09556106832699e+001dB,-2.07838550776723e+000°)
9.77757802404266e+002	(2.09695759900942e+001dB,-2.18520766818115e+000°)
1.02400000000000e+003	(2.09849090104104e+001dB,-2.29742336885118e+000°)
1.07242918176832e+003	(2.10017478124837e+001dB,-2.41538380637431e+000°)
1.12314877920730e+003	(2.10202447951938e+001dB,-2.53947032257508e+000°)
1.17626711551696e+003	(2.10405682977420e+001dB,-2.67009818448988e+000°)
1.23189763694809e+003	(2.10629044116300e+001dB,-2.80772096944708e+000°)
1.29015915509235e+003	(2.10874590251050e+001dB,-2.95283566953294e+000°)
1.35117610063144e+003	(2.11144601354495e+001dB,-3.10598865453675e+000°)
1.41507878908700e+003	(2.11441604711087e+001dB,-3.26778266371162e+000°)
1.48200369913895e+003	(2.11768404734713e+001dB,-3.43888503581234e+000°)
1.55209376410665e+003	(2.12128116977813e+001dB,-3.62003743640902e+000°)
1.62549867721544e+003	(2.12524207044718e+001dB,-3.81206740451926e+000°)
1.70237521130043e+003	(2.12960535267528e+001dB,-4.01590212134937e+000°)
1.78288755363046e+003	(2.13441408183306e+001dB,-4.23258490812276e+000°)
1.86720765656723e+003	(2.13971638076102e+001dB,-4.46329509529553e+000°)
1.95551560480853e+003	(2.14556612127641e+001dB,-4.70937208283384e+000°)
2.04800000000000e+003	(2.15202373074413e+001dB,-4.97234464514370e+000°)
2.14485836353664e+003	(2.15915713714883e+001dB,-5.25396684609226e+000°)
2.24629755841459e+003	(2.16704288178107e+001dB,-5.55626234830329e+000°)
2.35253423103393e+003	(2.17576743590116e+001dB,-5.88157946947138e+000°)
2.46379527389617e+003	(2.18542876704366e+001dB,-6.23266011773563e+000°)
2.58031831018470e+003	(2.19613821263220e+001dB,-6.61272681858586e+000°)
2.70235220126289e+003	(2.20802273409815e+001dB,-7.02559356081843e+000°)
2.83015757817400e+003	(2.22122764487598e+001dB,-7.47580834070938e+000°)
2.96400739827789e+003	(2.23591993183982e+001dB,-7.96883837936946e+000°)
3.10418752821329e+003	(2.25229232377244e+001dB,-8.51131350778734e+000°)
3.25099735443087e+003	(2.27056830422488e+001dB,-9.11134991042043e+000°)
3.40475042260086e+003	(2.29100832171393e+001dB,-9.77898650560581e+000°)
3.56577510726092e+003	(2.31391751843509e+001dB,-1.05267816980244e+001°)
3.73441531313446e+003	(2.33965537696698e+001dB,-1.13706423646731e+001°)
3.91103120961707e+003	(2.36864776033934e+001dB,-1.23309953276490e+001°)
4.09600000000000e+003	(2.40140185675864e+001dB,-1.34344738990765e+001°)
4.28971672707329e+003	(2.43852443650282e+001dB,-1.47163953675870e+001°)
4.49259511682919e+003	(2.48074333136645e+001dB,-1.62244798173818e+001°)
4.70506846206785e+003	(2.52893051904730e+001dB,-1.80245605190817e+001°)
4.92759054779235e+003	(2.58412102355559e+001dB,-2.02095560416071e+001°)
5.16063662036940e+003	(2.64751089159357e+001dB,-2.29138676056072e+001°)
5.40470440252577e+003	(2.72038901621557e+001dB,-2.63368157955793e+001°)
5.66031515634801e+003	(2.80388362945230e+001dB,-3.07806222441186e+001°)
5.92801479655579e+003	(2.89821632649267e+001dB,-3.67085429435018e+001°)
6.20837505642659e+003	(3.00072441894551e+001dB,-4.48147064594905e+001°)
6.50199470886174e+003	(3.10127679766089e+001dB,-5.60201148241104e+001°)
6.80950084520172e+003	(3.17492592465412e+001dB,-7.10680716057131e+001°)
7.13155021452185e+003	(3.18242185475817e+001dB,-8.92675463572125e+001°)
7.46883062626891e+003	(3.10002859366791e+001dB,-1.07606967195448e+002°)
7.82206241923413e+003	(2.94854942275146e+001dB,-1.22947934698824e+002°)
8.19200000000000e+003	(2.76750572909510e+001dB,-1.34427478612058e+002°)
8.57943345414657e+003	(2.58319381525200e+001dB,-1.42734885781454e+002°)
8.98519023365837e+003	(2.40659043073806e+001dB,-1.48800527249137e+002°)
9.41013692413571e+003	(2.24071123456828e+001dB,-1.53338108335209e+002°)
9.85518109558470e+003	(2.08545029034671e+001dB,-1.56826058667861e+002°)
1.03212732407388e+004	(1.93970080996015e+001dB,-1.59576532460890e+002°)
1.08094088050515e+004	(1.80216109193950e+001dB,-1.61795114837284e+002°)
1.13206303126960e+004	(1.67161100357415e+001dB,-1.63620174245254e+002°)
1.18560295931116e+004	(1.54698850694492e+001dB,-1.65147188625519e+002°)
1.24167501128532e+004	(1.42739443012865e+001dB,-1.66443680879455e+002°)
1.30039894177235e+004	(1.31207420020992e+001dB,-1.67558513104380e+002°)
1.36190016904034e+004	(1.20039461810535e+001dB,-1.68527791883688e+002°)
1.42631004290437e+004	(1.09182197625132e+001dB,-1.69378707264997e+002°)
1.49376612525378e+004	(9.85903327024045e+000dB,-1.70132085934655e+002°)
1.56441248384683e+004	(8.82251055504154e+000dB,-1.70804126485561e+002°)
1.63840000000000e+004	(7.80530363761673e+000dB,-1.71407602913449e+002°)
1.71588669082931e+004	(6.80449151043937e+000dB,-1.71952715060305e+002°)
1.79703804673167e+004	(5.81749803241910e+000dB,-1.72447699995277e+002°)
1.88202738482714e+004	(4.84202478301966e+000dB,-1.72899278517849e+002°)
1.97103621911694e+004	(3.87599551386801e+000dB,-1.73312985990087e+002°)
2.06425464814776e+004	(2.91750950672163e+000dB,-1.73693420724175e+002°)
2.16188176101031e+004	(1.96480168603750e+000dB,-1.74044432736181e+002°)
2.26412606253920e+004	(1.01620774711184e+000dB,-1.74369268769730e+002°)
2.37120591862231e+004	(7.01328651291035e-002dB,-1.74670684836019e+002°)
2.48335002257064e+004	(-8.74977237738023e-001dB,-1.74951034327450e+002°)
2.60079788354470e+004	(-1.82066395621819e+000dB,-1.75212337545275e+002°)
2.72380033808069e+004	(-2.76848322253692e+000dB,-1.75456336918053e+002°)
2.85262008580874e+004	(-3.72003371321006e+000dB,-1.75684541068499e+002°)
2.98753225050756e+004	(-4.67698694671333e+000dB,-1.75898260071800e+002°)
3.12882496769365e+004	(-5.64112053341823e+000dB,-1.76098633644310e+002°)
3.27680000000000e+004	(-6.61435609905073e+000dB,-1.76286653541169e+002°)
3.43177338165863e+004	(-7.59880380070417e+000dB,-1.76463181076349e+002°)
3.59407609346335e+004	(-8.59681594514934e+000dB,-1.76628960371348e+002°)
3.76405476965428e+004	(-9.61105309244345e+000dB,-1.76784627654353e+002°)
3.94207243823388e+004	(-1.06445673241910e+001dB,-1.76930716636045e+002°)
4.12850929629552e+004	(-1.17009093057167e+001dB,-1.77067659633184e+002°)
4.32376352202062e+004	(-1.27842687561705e+001dB,-1.77195783630232e+002°)
4.52825212507841e+004	(-1.38996626108510e+001dB,-1.77315299745860e+002°)
4.74241183724463e+004	(-1.50531926571257e+001dB,-1.77426283397838e+002°)
4.96670004514127e+004	(-1.62524068232533e+001dB,-1.77528640442416e+002°)
5.20159576708939e+004	(-1.75068195173756e+001dB,-1.77622050905548e+002°)
5.44760067616137e+004	(-1.88286841954696e+001dB,-1.77705874943552e+002°)
5.70524017161748e+004	(-2.02341818108028e+001dB,-1.77778991586616e+002°)
5.97506450101513e+004	(-2.17453276779934e+001dB,-1.77839510518529e+002°)
6.25764993538730e+004	(-2.33931917090198e+001dB,-1.77884226799120e+002°)
6.55360000000000e+004	(-2.52236949766323e+001dB,-1.77907509039145e+002°)
6.86354676331726e+004	(-2.73089373864346e+001dB,-1.77898796134689e+002°)
7.18815218692670e+004	(-2.97719198764230e+001dB,-1.77836143204159e+002°)
7.52810953930857e+004	(-3.28497410800279e+001dB,-1.77665958186757e+002°)
7.88414487646776e+004	(-3.71011886907205e+001dB,-1.77215387399215e+002°)
8.25701859259104e+004	(-4.45247323876186e+001dB,-1.75452571461467e+002°)
8.64752704404124e+004	(-5.69689691679184e+001dB,-1.22060044968153e+001°)
9.05650425015681e+004	(-4.18939542250830e+001dB,-1.13755768854225e+000°)
9.48482367448926e+004	(-3.70161009716814e+001dB,-1.88290632032024e-001°)
9.93340009028254e+004	(-3.41465860075570e+001dB,1.28265247574714e-001°)
1.04031915341788e+005	(-3.21648088653366e+001dB,2.65823229240243e-001°)
1.08952013523227e+005	(-3.06842547328277e+001dB,3.28805155565241e-001°)
1.14104803432350e+005	(-2.95250249958607e+001dB,3.54141960456350e-001°)
1.19501290020303e+005	(-2.85886421799884e+001dB,3.58164948446327e-001°)
1.25152998707746e+005	(-2.78153128510144e+001dB,3.49174250523577e-001°)
1.31072000000000e+005	(-2.71660046439459e+001dB,3.31807450296562e-001°)
1.37270935266345e+005	(-2.66138342438431e+001dB,3.08837388525014e-001°)
1.43763043738534e+005	(-2.61395045733510e+001dB,2.82006379769708e-001°)
1.50562190786171e+005	(-2.57287016965809e+001dB,2.52449879600485e-001°)
1.57682897529355e+005	(-2.53705208233196e+001dB,2.20927384003959e-001°)
1.65140371851821e+005	(-2.50564687608912e+001dB,1.87955617747976e-001°)
1.72950540880825e+005	(-2.47798066567193e+001dB,1.53889027073383e-001°)
1.81130085003136e+005	(-2.45351025652074e+001dB,1.18970356366413e-001°)
1.89696473489785e+005	(-2.43179182393966e+001dB,8.33634903098806e-002°)
1.98668001805651e+005	(-2.41245845328200e+001dB,4.71753869118649e-002°)
2.08063830683576e+005	(-2.39520369164152e+001dB,1.04710822230268e-002°)
2.17904027046455e+005	(-2.37976927642807e+001dB,-2.67158306086230e-002°)
2.28209606864699e+005	(-2.36593582795582e+001dB,-6.43757514446221e-002°)
2.39002580040605e+005	(-2.35351568518836e+001dB,-1.02517696463229e-001°)
2.50305997415492e+005	(-2.34234731740909e+001dB,-1.41165367986679e-001°)
2.62144000000000e+005	(-2.33229091239738e+001dB,-1.80354252323498e-001°)
2.74541870532690e+005	(-2.32322485510710e+001dB,-2.20129459410154e-001°)
2.87526087477068e+005	(-2.31504288885713e+001dB,-2.60544106379430e-001°)
3.01124381572343e+005	(-2.30765180567275e+001dB,-3.01658104870018e-001°)
3.15365795058710e+005	(-2.30096955122874e+001dB,-3.43537252530395e-001°)
3.30280743703642e+005	(-2.29492365783396e+001dB,-3.86252555876026e-001°)
3.45901081761649e+005	(-2.28944993932705e+001dB,-4.29879731662096e-001°)
3.62260170006273e+005	(-2.28449139685077e+001dB,-4.74498847192655e-001°)
